
T08B4 000:131 SEGGER J-Link V6.10i Log File (0001ms, 0018ms total)
T08B4 000:131 DLL Compiled: Oct 25 2016 19:31:51 (0001ms, 0018ms total)
T08B4 000:131 Logging started @ 2017-02-13 09:39 (0001ms, 0018ms total)
T08B4 000:132 JLINK_SetWarnOutHandler(...) (0000ms, 0018ms total)
T08B4 000:132 JLINK_OpenEx(...)
Firmware: J-Link ARM-OB STM32 compiled Aug 22 2012 19:52:04
Hardware: V7.00
S/N: 20160226
Feature(s): RDI,FlashDL,FlashBP,JFlash,GDBFullWEBSRV Webserver running on local port 19080 (0008ms, 0026ms total)
T08B4 000:132   returns O.K. (0008ms, 0026ms total)
T08B4 000:140 JLINK_SetErrorOutHandler(...) (0000ms, 0026ms total)
T08B4 000:140 JLINK_ExecCommand("ProjectFile = "E:\Github Project\Oil_Can(Queen)\USER\JLinkSettings.ini"", ...).   returns 0x00 (0094ms, 0120ms total)
T08B4 000:235 JLINK_ExecCommand("Device = STM32F103RC", ...). Device "STM32F103RC" selected.  returns 0x00 (0002ms, 0122ms total)
T08B4 000:237 JLINK_ExecCommand("DisableConnectionTimeout", ...).   returns 0x01 (0000ms, 0122ms total)
T08B4 000:237 JLINK_GetHardwareVersion()  returns 0x11170 (0001ms, 0123ms total)
T08B4 000:238 JLINK_GetDLLVersion()  returns 61009 (0000ms, 0123ms total)
T08B4 000:238 JLINK_GetFirmwareString(...) (0000ms, 0123ms total)
T08B4 000:243 JLINK_GetDLLVersion()  returns 61009 (0000ms, 0123ms total)
T08B4 000:243 JLINK_GetCompileDateTime() (0000ms, 0123ms total)
T08B4 000:244 JLINK_GetFirmwareString(...) (0000ms, 0123ms total)
T08B4 000:246 JLINK_GetHardwareVersion()  returns 0x11170 (0000ms, 0123ms total)
T08B4 000:252 JLINK_TIF_Select(JLINKARM_TIF_SWD)  returns 0x00 (0001ms, 0124ms total)
T08B4 000:253 JLINK_SetSpeed(20000) (0000ms, 0124ms total)
T08B4 000:253 JLINK_GetId() >0x108 TIF>Found SWD-DP with ID 0x1BA01477 >0x0D TIF> >0x28 TIF> >0x0D TIF> >0x28 TIF> >0x0D TIF> >0x28 TIF> >0x0D TIF> >0x28 TIF> >0x0D TIF> >0x21 TIF> >0x0D TIF> >0x28 TIF> >0x0D TIF> >0x28 TIF> >0x0D TIF> >0x28 TIF> >0x0D TIF> >0x21 TIF> >0x0D TIF> >0x21 TIF> >0x0D TIF> >0x28 TIF> >0x0D TIF> >0x21 TIF> >0x0D TIF> >0x21 TIF> >0x0D TIF> >0x28 TIF> >0x0D TIF> >0x21 TIF> >0x0D TIF> >0x21 TIF> >0x0D TIF> >0x28 TIF> >0x0D TIF> >0x21 TIF> >0x0D TIF> >0x21 TIF> >0x0D TIF>
 >0x28 TIF> >0x0D TIF> >0x21 TIF> >0x0D TIF> >0x21 TIF> >0x0D TIF> >0x28 TIF> >0x0D TIF> >0x21 TIF> >0x0D TIF> >0x21 TIF> >0x0D TIF> >0x28 TIF> >0x0D TIF> >0x21 TIF> >0x0D TIF> >0x21 TIF> >0x108 TIF>Found SWD-DP with ID 0x1BA01477 >0x0D TIF> >0x28 TIF> >0x0D TIF> >0x28 TIF> >0x0D TIF> >0x28 TIF> >0x0D TIF> >0x28 TIF> >0x0D TIF> >0x21 TIF> >0x0D TIF> >0x28 TIF> >0x0D TIF> >0x28 TIF> >0x0D TIF> >0x21 TIF> >0x0D TIF> >0x21 TIF> >0x0D TIF> >0x21 TIF>AP-IDR: 0x14770011, Type: AHB-AP >0x0D TIF> >0x28 TIF>
 >0x0D TIF> >0x28 TIF> >0x0D TIF> >0x28 TIF> >0x0D TIF> >0x21 TIF> >0x0D TIF> >0x21 TIF> >0x0D TIF> >0x28 TIF> >0x0D TIF> >0x21 TIF> >0x0D TIF> >0x21 TIF>Found Cortex-M3 r1p1, Little endian. -- CPU_ReadMem(4 bytes @ 0xE000EDF0) -- CPU_WriteMem(4 bytes @ 0xE000EDF0) -- CPU_ReadMem(4 bytes @ 0xE0002000)FPUnit: 6 code (BP) slots and 2 literal slots -- CPU_ReadMem(4 bytes @ 0xE000EDFC) -- CPU_WriteMem(4 bytes @ 0xE000EDFC) -- CPU_ReadMem(4 bytes @ 0xE0001000) -- CPU_WriteMem(4 bytes @ 0xE0001000)
 -- CPU_ReadMem(4 bytes @ 0xE000ED88) -- CPU_WriteMem(4 bytes @ 0xE000ED88) -- CPU_ReadMem(4 bytes @ 0xE000ED88) -- CPU_WriteMem(4 bytes @ 0xE000ED88)CoreSight components:ROMTbl 0 @ E00FF000 -- CPU_ReadMem(16 bytes @ 0xE00FF000) -- CPU_ReadMem(16 bytes @ 0xE000EFF0) -- CPU_ReadMem(16 bytes @ 0xE000EFE0)ROMTbl 0 [0]: FFF0F000, CID: B105E00D, PID: 001BB000 SCS -- CPU_ReadMem(16 bytes @ 0xE0001FF0) -- CPU_ReadMem(16 bytes @ 0xE0001FE0)ROMTbl 0 [1]: FFF02000, CID: B105E00D, PID: 001BB002 DWT
 -- CPU_ReadMem(16 bytes @ 0xE0002FF0) -- CPU_ReadMem(16 bytes @ 0xE0002FE0)ROMTbl 0 [2]: FFF03000, CID: B105E00D, PID: 000BB003 FPB -- CPU_ReadMem(16 bytes @ 0xE0000FF0) -- CPU_ReadMem(16 bytes @ 0xE0000FE0)ROMTbl 0 [3]: FFF01000, CID: B105E00D, PID: 001BB001 ITM -- CPU_ReadMem(16 bytes @ 0xE00FF010) -- CPU_ReadMem(16 bytes @ 0xE0040FF0) -- CPU_ReadMem(16 bytes @ 0xE0040FE0)ROMTbl 0 [4]: FFF41000, CID: B105900D, PID: 001BB923 TPIU-Lite -- CPU_ReadMem(16 bytes @ 0xE0041FF0)
 -- CPU_ReadMem(16 bytes @ 0xE0041FE0)ROMTbl 0 [5]: FFF42000, CID: B105900D, PID: 101BB924 ETM-M3 >0x0D TIF> >0x21 TIF>  returns 0x1BA01477 (0052ms, 0176ms total)
T08B4 000:305 JLINK_GetDLLVersion()  returns 61009 (0000ms, 0176ms total)
T08B4 000:305 JLINK_CORE_GetFound()  returns 0x30000FF (0000ms, 0176ms total)
T08B4 000:305 JLINK_GetDebugInfo(0x100) -- Value=0xE00FF000  returns 0x00 (0000ms, 0176ms total)
T08B4 000:307 JLINK_GetDebugInfo(0x100) -- Value=0xE00FF000  returns 0x00 (0000ms, 0176ms total)
T08B4 000:307 JLINK_GetDebugInfo(0x101) -- Value=0xE0041000  returns 0x00 (0000ms, 0176ms total)
T08B4 000:307 JLINK_GetDebugInfo(0x102) -- Value=0x00000000  returns 0x00 (0000ms, 0176ms total)
T08B4 000:307 JLINK_GetDebugInfo(0x103) -- Value=0xE0040000  returns 0x00 (0000ms, 0176ms total)
T08B4 000:307 JLINK_GetDebugInfo(0x104) -- Value=0xE0000000  returns 0x00 (0000ms, 0176ms total)
T08B4 000:307 JLINK_GetDebugInfo(0x105) -- Value=0xE0001000  returns 0x00 (0000ms, 0176ms total)
T08B4 000:307 JLINK_GetDebugInfo(0x106) -- Value=0xE0002000  returns 0x00 (0000ms, 0176ms total)
T08B4 000:307 JLINK_GetDebugInfo(0x107) -- Value=0xE000E000  returns 0x00 (0000ms, 0176ms total)
T08B4 000:307 JLINK_GetDebugInfo(0x10C) -- Value=0xE000EDF0  returns 0x00 (0000ms, 0176ms total)
T08B4 000:307 JLINK_ReadMemU32(0xE000ED00, 0x0001 Items, ...) -- CPU is running -- CPU_ReadMem(4 bytes @ 0xE000ED00) - Data: 31 C2 1F 41  returns 0x01 (0001ms, 0177ms total)
T08B4 000:308 JLINK_SetResetType(JLINKARM_RESET_TYPE_NORMAL)  returns JLINKARM_RESET_TYPE_NORMAL (0000ms, 0177ms total)
T08B4 000:308 JLINK_Reset() -- CPU is running -- CPU_WriteMem(4 bytes @ 0xE000EDF0) -- CPU is running -- CPU_WriteMem(4 bytes @ 0xE000EDFC) >0x35 TIF> -- CPU is running -- CPU_WriteMem(4 bytes @ 0xE000ED0C) -- CPU is running -- CPU_ReadMem(4 bytes @ 0xE000EDF0) -- CPU is running -- CPU_ReadMem(4 bytes @ 0xE000EDF0) -- CPU is running -- CPU_WriteMem(4 bytes @ 0xE000EDF0) -- CPU is running -- CPU_WriteMem(4 bytes @ 0xE000EDFC) -- CPU is running -- CPU_ReadMem(4 bytes @ 0xE000EDF0)
 -- CPU_WriteMem(4 bytes @ 0xE0002000) -- CPU_ReadMem(4 bytes @ 0xE000EDFC) -- CPU_ReadMem(4 bytes @ 0xE0001000) (0017ms, 0194ms total)
T08B4 000:325 JLINK_Halt()  returns 0x00 (0000ms, 0194ms total)
T08B4 000:325 JLINK_IsHalted()  returns TRUE (0000ms, 0194ms total)
T08B4 000:325 JLINK_ReadMemU32(0xE000EDF0, 0x0001 Items, ...) -- CPU_ReadMem(4 bytes @ 0xE000EDF0) - Data: 03 00 03 00  returns 0x01 (0001ms, 0195ms total)
T08B4 000:326 JLINK_WriteU32(0xE000EDF0, 0xA05F0003) -- CPU_WriteMem(4 bytes @ 0xE000EDF0)  returns 0x00 (0000ms, 0195ms total)
T08B4 000:326 JLINK_WriteU32(0xE000EDFC, 0x01000000) -- CPU_WriteMem(4 bytes @ 0xE000EDFC)  returns 0x00 (0001ms, 0196ms total)
T08B4 000:333 JLINK_GetHWStatus(...)  returns 0x00 (0000ms, 0196ms total)
T08B4 000:338 JLINK_GetNumBPUnits(Type = 0xFFFFFF00)  returns 0x06 (0000ms, 0196ms total)
T08B4 000:338 JLINK_GetNumBPUnits(Type = 0xF0)  returns 0x2000 (0000ms, 0196ms total)
T08B4 000:338 JLINK_GetNumWPUnits()  returns 0x04 (0000ms, 0196ms total)
T08B4 000:343 JLINK_GetSpeed()  returns 0xFA0 (0000ms, 0196ms total)
T08B4 000:346 JLINK_ReadMemU32(0xE000E004, 0x0001 Items, ...) -- CPU_ReadMem(4 bytes @ 0xE000E004) - Data: 01 00 00 00  returns 0x01 (0000ms, 0196ms total)
T08B4 000:346 JLINK_ReadMemU32(0xE000E004, 0x0001 Items, ...) -- CPU_ReadMem(4 bytes @ 0xE000E004) - Data: 01 00 00 00  returns 0x01 (0001ms, 0197ms total)
T08B4 000:347 JLINK_WriteMem(0xE0001000, 0x001C Bytes, ...) - Data: 01 00 00 00 00 00 00 00 00 00 00 00 00 00 00 00 ... -- CPU_WriteMem(28 bytes @ 0xE0001000)  returns 0x1C (0001ms, 0198ms total)
T08B4 000:348 JLINK_ReadMem (0xE0001000, 0x001C Bytes, ...) -- CPU_ReadMem(28 bytes @ 0xE0001000) - Data: 01 00 00 40 00 00 00 00 00 00 00 00 00 00 00 00 ...  returns 0x00 (0001ms, 0199ms total)
T08B4 000:349 JLINK_Halt()  returns 0x00 (0000ms, 0199ms total)
T08B4 000:349 JLINK_IsHalted()  returns TRUE (0000ms, 0199ms total)
T08B4 000:351 JLINK_WriteMem(0x20000000, 0x0164 Bytes, ...) - Data: 00 BE 0A E0 0D 78 2D 06 68 40 08 24 40 00 00 D3 ... -- CPU_WriteMem(356 bytes @ 0x20000000)  returns 0x164 (0005ms, 0204ms total)
T08B4 000:356 JLINK_WriteReg(R0, 0x08000000)  returns 0x00 (0000ms, 0204ms total)
T08B4 000:356 JLINK_WriteReg(R1, 0x00B71B00)  returns 0x00 (0001ms, 0205ms total)
T08B4 000:357 JLINK_WriteReg(R2, 0x00000001)  returns 0x00 (0000ms, 0205ms total)
T08B4 000:357 JLINK_WriteReg(R3, 0x00000000)  returns 0x00 (0000ms, 0205ms total)
T08B4 000:357 JLINK_WriteReg(R4, 0x00000000)  returns 0x00 (0000ms, 0205ms total)
T08B4 000:357 JLINK_WriteReg(R5, 0x00000000)  returns 0x00 (0000ms, 0205ms total)
T08B4 000:357 JLINK_WriteReg(R6, 0x00000000)  returns 0x00 (0000ms, 0205ms total)
T08B4 000:357 JLINK_WriteReg(R7, 0x00000000)  returns 0x00 (0000ms, 0205ms total)
T08B4 000:357 JLINK_WriteReg(R8, 0x00000000)  returns 0x00 (0000ms, 0205ms total)
T08B4 000:357 JLINK_WriteReg(R9, 0x20000160)  returns 0x00 (0000ms, 0205ms total)
T08B4 000:357 JLINK_WriteReg(R10, 0x00000000)  returns 0x00 (0000ms, 0205ms total)
T08B4 000:357 JLINK_WriteReg(R11, 0x00000000)  returns 0x00 (0000ms, 0205ms total)
T08B4 000:357 JLINK_WriteReg(R12, 0x00000000)  returns 0x00 (0000ms, 0205ms total)
T08B4 000:357 JLINK_WriteReg(R13 (SP), 0x20001000)  returns 0x00 (0000ms, 0205ms total)
T08B4 000:357 JLINK_WriteReg(R14, 0x20000001)  returns 0x00 (0000ms, 0205ms total)
T08B4 000:357 JLINK_WriteReg(R15 (PC), 0x20000038)  returns 0x00 (0000ms, 0205ms total)
T08B4 000:357 JLINK_WriteReg(XPSR, 0x01000000)  returns 0x00 (0000ms, 0205ms total)
T08B4 000:357 JLINK_WriteReg(MSP, 0x20001000)  returns 0x00 (0000ms, 0205ms total)
T08B4 000:357 JLINK_WriteReg(PSP, 0x20001000)  returns 0x00 (0000ms, 0205ms total)
T08B4 000:357 JLINK_WriteReg(CFBP, 0x00000000)  returns 0x00 (0000ms, 0205ms total)
T08B4 000:357 JLINK_SetBPEx(Addr = 0x20000000, Type = 0xFFFFFFF2) -- CPU_ReadMem(2 bytes @ 0x20000000)  returns 0x00000001 (0000ms, 0205ms total)
T08B4 000:357 JLINK_Go() -- CPU_WriteMem(2 bytes @ 0x20000000) -- CPU_ReadMem(4 bytes @ 0xE0001000) -- CPU_WriteMem(4 bytes @ 0xE0002008) -- CPU_WriteMem(4 bytes @ 0xE000200C) -- CPU_WriteMem(4 bytes @ 0xE0002010) -- CPU_WriteMem(4 bytes @ 0xE0002014) -- CPU_WriteMem(4 bytes @ 0xE0002018) -- CPU_WriteMem(4 bytes @ 0xE000201C) -- CPU_WriteMem(4 bytes @ 0xE0001004) (0006ms, 0211ms total)
T08B4 000:363 JLINK_IsHalted() -- CPU_ReadMem(2 bytes @ 0x20000000)  returns TRUE (0003ms, 0214ms total)
T08B4 000:366 JLINK_ReadReg(R15 (PC))  returns 0x20000000 (0000ms, 0211ms total)
T08B4 000:366 JLINK_ClrBPEx(BPHandle = 0x00000001)  returns 0x00 (0000ms, 0211ms total)
T08B4 000:366 JLINK_ReadReg(R0)  returns 0x00000000 (0000ms, 0211ms total)
T08B4 000:367 JLINK_WriteReg(R0, 0x08000000)  returns 0x00 (0000ms, 0211ms total)
T08B4 000:367 JLINK_WriteReg(R1, 0x00B71B00)  returns 0x00 (0000ms, 0211ms total)
T08B4 000:367 JLINK_WriteReg(R2, 0x00000001)  returns 0x00 (0000ms, 0211ms total)
T08B4 000:367 JLINK_WriteReg(R3, 0x00000000)  returns 0x00 (0000ms, 0211ms total)
T08B4 000:367 JLINK_WriteReg(R4, 0x00000000)  returns 0x00 (0000ms, 0211ms total)
T08B4 000:367 JLINK_WriteReg(R5, 0x00000000)  returns 0x00 (0000ms, 0211ms total)
T08B4 000:367 JLINK_WriteReg(R6, 0x00000000)  returns 0x00 (0000ms, 0211ms total)
T08B4 000:367 JLINK_WriteReg(R7, 0x00000000)  returns 0x00 (0000ms, 0211ms total)
T08B4 000:367 JLINK_WriteReg(R8, 0x00000000)  returns 0x00 (0000ms, 0211ms total)
T08B4 000:367 JLINK_WriteReg(R9, 0x20000160)  returns 0x00 (0000ms, 0211ms total)
T08B4 000:367 JLINK_WriteReg(R10, 0x00000000)  returns 0x00 (0000ms, 0211ms total)
T08B4 000:367 JLINK_WriteReg(R11, 0x00000000)  returns 0x00 (0000ms, 0211ms total)
T08B4 000:367 JLINK_WriteReg(R12, 0x00000000)  returns 0x00 (0000ms, 0211ms total)
T08B4 000:367 JLINK_WriteReg(R13 (SP), 0x20001000)  returns 0x00 (0000ms, 0211ms total)
T08B4 000:367 JLINK_WriteReg(R14, 0x20000001)  returns 0x00 (0000ms, 0211ms total)
T08B4 000:367 JLINK_WriteReg(R15 (PC), 0x2000007C)  returns 0x00 (0000ms, 0211ms total)
T08B4 000:367 JLINK_WriteReg(XPSR, 0x01000000)  returns 0x00 (0000ms, 0211ms total)
T08B4 000:367 JLINK_WriteReg(MSP, 0x20001000)  returns 0x00 (0000ms, 0211ms total)
T08B4 000:367 JLINK_WriteReg(PSP, 0x20001000)  returns 0x00 (0000ms, 0211ms total)
T08B4 000:367 JLINK_WriteReg(CFBP, 0x00000000)  returns 0x00 (0000ms, 0211ms total)
T08B4 000:367 JLINK_SetBPEx(Addr = 0x20000000, Type = 0xFFFFFFF2)  returns 0x00000002 (0000ms, 0211ms total)
T08B4 000:367 JLINK_Go() -- CPU_ReadMem(4 bytes @ 0xE0001000) (0002ms, 0213ms total)
T08B4 000:369 JLINK_IsHalted()  returns FALSE (0000ms, 0213ms total)
T08B4 000:397 JLINK_IsHalted() -- CPU_ReadMem(2 bytes @ 0x20000000)  returns TRUE (0003ms, 0216ms total)
T08B4 000:400 JLINK_ReadReg(R15 (PC))  returns 0x20000000 (0000ms, 0213ms total)
T08B4 000:400 JLINK_ClrBPEx(BPHandle = 0x00000002)  returns 0x00 (0000ms, 0213ms total)
T08B4 000:400 JLINK_ReadReg(R0)  returns 0x00000000 (0000ms, 0213ms total)
T08B4 000:451 JLINK_WriteReg(R0, 0x00000001)  returns 0x00 (0000ms, 0213ms total)
T08B4 000:451 JLINK_WriteReg(R1, 0x00B71B00)  returns 0x00 (0000ms, 0213ms total)
T08B4 000:451 JLINK_WriteReg(R2, 0x00000001)  returns 0x00 (0000ms, 0213ms total)
T08B4 000:451 JLINK_WriteReg(R3, 0x00000000)  returns 0x00 (0000ms, 0213ms total)
T08B4 000:451 JLINK_WriteReg(R4, 0x00000000)  returns 0x00 (0000ms, 0213ms total)
T08B4 000:451 JLINK_WriteReg(R5, 0x00000000)  returns 0x00 (0000ms, 0213ms total)
T08B4 000:451 JLINK_WriteReg(R6, 0x00000000)  returns 0x00 (0000ms, 0213ms total)
T08B4 000:451 JLINK_WriteReg(R7, 0x00000000)  returns 0x00 (0000ms, 0213ms total)
T08B4 000:451 JLINK_WriteReg(R8, 0x00000000)  returns 0x00 (0000ms, 0213ms total)
T08B4 000:451 JLINK_WriteReg(R9, 0x20000160)  returns 0x00 (0000ms, 0213ms total)
T08B4 000:451 JLINK_WriteReg(R10, 0x00000000)  returns 0x00 (0000ms, 0213ms total)
T08B4 000:451 JLINK_WriteReg(R11, 0x00000000)  returns 0x00 (0000ms, 0213ms total)
T08B4 000:451 JLINK_WriteReg(R12, 0x00000000)  returns 0x00 (0000ms, 0213ms total)
T08B4 000:451 JLINK_WriteReg(R13 (SP), 0x20001000)  returns 0x00 (0000ms, 0213ms total)
T08B4 000:451 JLINK_WriteReg(R14, 0x20000001)  returns 0x00 (0000ms, 0213ms total)
T08B4 000:451 JLINK_WriteReg(R15 (PC), 0x2000006A)  returns 0x00 (0000ms, 0213ms total)
T08B4 000:451 JLINK_WriteReg(XPSR, 0x01000000)  returns 0x00 (0000ms, 0213ms total)
T08B4 000:451 JLINK_WriteReg(MSP, 0x20001000)  returns 0x00 (0000ms, 0213ms total)
T08B4 000:451 JLINK_WriteReg(PSP, 0x20001000)  returns 0x00 (0000ms, 0213ms total)
T08B4 000:451 JLINK_WriteReg(CFBP, 0x00000000)  returns 0x00 (0000ms, 0213ms total)
T08B4 000:451 JLINK_SetBPEx(Addr = 0x20000000, Type = 0xFFFFFFF2)  returns 0x00000003 (0001ms, 0214ms total)
T08B4 000:452 JLINK_Go() -- CPU_ReadMem(4 bytes @ 0xE0001000) (0001ms, 0215ms total)
T08B4 000:453 JLINK_IsHalted() -- CPU_ReadMem(2 bytes @ 0x20000000)  returns TRUE (0004ms, 0219ms total)
T08B4 000:457 JLINK_ReadReg(R15 (PC))  returns 0x20000000 (0000ms, 0215ms total)
T08B4 000:457 JLINK_ClrBPEx(BPHandle = 0x00000003)  returns 0x00 (0000ms, 0215ms total)
T08B4 000:457 JLINK_ReadReg(R0)  returns 0x00000000 (0000ms, 0215ms total)
T08B4 000:461 JLINK_WriteMem(0x20000000, 0x0164 Bytes, ...) - Data: 00 BE 0A E0 0D 78 2D 06 68 40 08 24 40 00 00 D3 ... -- CPU_WriteMem(356 bytes @ 0x20000000)  returns 0x164 (0005ms, 0220ms total)
T08B4 000:466 JLINK_WriteReg(R0, 0x08000000)  returns 0x00 (0000ms, 0220ms total)
T08B4 000:466 JLINK_WriteReg(R1, 0x00B71B00)  returns 0x00 (0000ms, 0220ms total)
T08B4 000:466 JLINK_WriteReg(R2, 0x00000002)  returns 0x00 (0000ms, 0220ms total)
T08B4 000:466 JLINK_WriteReg(R3, 0x00000000)  returns 0x00 (0000ms, 0220ms total)
T08B4 000:466 JLINK_WriteReg(R4, 0x00000000)  returns 0x00 (0000ms, 0220ms total)
T08B4 000:466 JLINK_WriteReg(R5, 0x00000000)  returns 0x00 (0000ms, 0220ms total)
T08B4 000:466 JLINK_WriteReg(R6, 0x00000000)  returns 0x00 (0000ms, 0220ms total)
T08B4 000:466 JLINK_WriteReg(R7, 0x00000000)  returns 0x00 (0000ms, 0220ms total)
T08B4 000:466 JLINK_WriteReg(R8, 0x00000000)  returns 0x00 (0001ms, 0221ms total)
T08B4 000:467 JLINK_WriteReg(R9, 0x20000160)  returns 0x00 (0000ms, 0221ms total)
T08B4 000:467 JLINK_WriteReg(R10, 0x00000000)  returns 0x00 (0000ms, 0221ms total)
T08B4 000:467 JLINK_WriteReg(R11, 0x00000000)  returns 0x00 (0000ms, 0221ms total)
T08B4 000:467 JLINK_WriteReg(R12, 0x00000000)  returns 0x00 (0000ms, 0221ms total)
T08B4 000:467 JLINK_WriteReg(R13 (SP), 0x20001000)  returns 0x00 (0000ms, 0221ms total)
T08B4 000:467 JLINK_WriteReg(R14, 0x20000001)  returns 0x00 (0000ms, 0221ms total)
T08B4 000:467 JLINK_WriteReg(R15 (PC), 0x20000038)  returns 0x00 (0000ms, 0221ms total)
T08B4 000:467 JLINK_WriteReg(XPSR, 0x01000000)  returns 0x00 (0000ms, 0221ms total)
T08B4 000:467 JLINK_WriteReg(MSP, 0x20001000)  returns 0x00 (0000ms, 0221ms total)
T08B4 000:467 JLINK_WriteReg(PSP, 0x20001000)  returns 0x00 (0000ms, 0221ms total)
T08B4 000:467 JLINK_WriteReg(CFBP, 0x00000000)  returns 0x00 (0000ms, 0221ms total)
T08B4 000:467 JLINK_SetBPEx(Addr = 0x20000000, Type = 0xFFFFFFF2) -- CPU_ReadMem(2 bytes @ 0x20000000)  returns 0x00000004 (0000ms, 0221ms total)
T08B4 000:467 JLINK_Go() -- CPU_WriteMem(2 bytes @ 0x20000000) -- CPU_ReadMem(4 bytes @ 0xE0001000) (0003ms, 0224ms total)
T08B4 000:470 JLINK_IsHalted() -- CPU_ReadMem(2 bytes @ 0x20000000)  returns TRUE (0003ms, 0227ms total)
T08B4 000:473 JLINK_ReadReg(R15 (PC))  returns 0x20000000 (0000ms, 0224ms total)
T08B4 000:473 JLINK_ClrBPEx(BPHandle = 0x00000004)  returns 0x00 (0000ms, 0224ms total)
T08B4 000:473 JLINK_ReadReg(R0)  returns 0x00000000 (0000ms, 0224ms total)
T08B4 000:474 JLINK_WriteMem(0x20000164, 0x0400 Bytes, ...) - Data: D0 A5 00 20 79 02 00 08 15 86 00 08 DF 2D 00 08 ... -- CPU_WriteMem(1024 bytes @ 0x20000164)  returns 0x400 (0012ms, 0236ms total)
T08B4 000:486 JLINK_WriteReg(R0, 0x08000000)  returns 0x00 (0000ms, 0236ms total)
T08B4 000:486 JLINK_WriteReg(R1, 0x00000400)  returns 0x00 (0000ms, 0236ms total)
T08B4 000:486 JLINK_WriteReg(R2, 0x20000164)  returns 0x00 (0000ms, 0236ms total)
T08B4 000:486 JLINK_WriteReg(R3, 0x00000000)  returns 0x00 (0000ms, 0236ms total)
T08B4 000:486 JLINK_WriteReg(R4, 0x00000000)  returns 0x00 (0000ms, 0236ms total)
T08B4 000:486 JLINK_WriteReg(R5, 0x00000000)  returns 0x00 (0000ms, 0236ms total)
T08B4 000:486 JLINK_WriteReg(R6, 0x00000000)  returns 0x00 (0000ms, 0236ms total)
T08B4 000:486 JLINK_WriteReg(R7, 0x00000000)  returns 0x00 (0000ms, 0236ms total)
T08B4 000:486 JLINK_WriteReg(R8, 0x00000000)  returns 0x00 (0000ms, 0236ms total)
T08B4 000:486 JLINK_WriteReg(R9, 0x20000160)  returns 0x00 (0000ms, 0236ms total)
T08B4 000:486 JLINK_WriteReg(R10, 0x00000000)  returns 0x00 (0000ms, 0236ms total)
T08B4 000:486 JLINK_WriteReg(R11, 0x00000000)  returns 0x00 (0000ms, 0236ms total)
T08B4 000:486 JLINK_WriteReg(R12, 0x00000000)  returns 0x00 (0000ms, 0236ms total)
T08B4 000:486 JLINK_WriteReg(R13 (SP), 0x20001000)  returns 0x00 (0000ms, 0236ms total)
T08B4 000:486 JLINK_WriteReg(R14, 0x20000001)  returns 0x00 (0000ms, 0236ms total)
T08B4 000:486 JLINK_WriteReg(R15 (PC), 0x200000F4)  returns 0x00 (0000ms, 0236ms total)
T08B4 000:486 JLINK_WriteReg(XPSR, 0x01000000)  returns 0x00 (0000ms, 0236ms total)
T08B4 000:486 JLINK_WriteReg(MSP, 0x20001000)  returns 0x00 (0000ms, 0236ms total)
T08B4 000:486 JLINK_WriteReg(PSP, 0x20001000)  returns 0x00 (0000ms, 0236ms total)
T08B4 000:486 JLINK_WriteReg(CFBP, 0x00000000)  returns 0x00 (0000ms, 0236ms total)
T08B4 000:487 JLINK_SetBPEx(Addr = 0x20000000, Type = 0xFFFFFFF2)  returns 0x00000005 (0000ms, 0237ms total)
T08B4 000:487 JLINK_Go() -- CPU_ReadMem(4 bytes @ 0xE0001000) (0002ms, 0239ms total)
T08B4 000:489 JLINK_IsHalted()  returns FALSE (0000ms, 0239ms total)
T08B4 000:494 JLINK_IsHalted()  returns FALSE (0000ms, 0239ms total)
T08B4 000:496 JLINK_IsHalted()  returns FALSE (0000ms, 0239ms total)
T08B4 000:498 JLINK_IsHalted()  returns FALSE (0000ms, 0239ms total)
T08B4 000:500 JLINK_IsHalted()  returns FALSE (0000ms, 0239ms total)
T08B4 000:502 JLINK_IsHalted()  returns FALSE (0000ms, 0239ms total)
T08B4 000:504 JLINK_IsHalted()  returns FALSE (0000ms, 0239ms total)
T08B4 000:506 JLINK_IsHalted()  returns FALSE (0000ms, 0239ms total)
T08B4 000:508 JLINK_IsHalted()  returns FALSE (0000ms, 0239ms total)
T08B4 000:510 JLINK_IsHalted()  returns FALSE (0000ms, 0239ms total)
T08B4 000:513 JLINK_IsHalted()  returns FALSE (0000ms, 0239ms total)
T08B4 000:515 JLINK_IsHalted()  returns FALSE (0000ms, 0239ms total)
T08B4 000:517 JLINK_IsHalted()  returns FALSE (0000ms, 0239ms total)
T08B4 000:519 JLINK_IsHalted()  returns FALSE (0000ms, 0239ms total)
T08B4 000:521 JLINK_IsHalted() -- CPU_ReadMem(2 bytes @ 0x20000000)  returns TRUE (0003ms, 0242ms total)
T08B4 000:524 JLINK_ReadReg(R15 (PC))  returns 0x20000000 (0000ms, 0239ms total)
T08B4 000:524 JLINK_ClrBPEx(BPHandle = 0x00000005)  returns 0x00 (0000ms, 0239ms total)
T08B4 000:524 JLINK_ReadReg(R0)  returns 0x00000000 (0000ms, 0239ms total)
T08B4 000:524 JLINK_WriteMem(0x20000164, 0x0400 Bytes, ...) - Data: 1F 4C 7C 44 0E 34 00 21 00 F1 24 06 08 E0 02 F0 ... -- CPU_WriteMem(1024 bytes @ 0x20000164)  returns 0x400 (0013ms, 0252ms total)
T08B4 000:537 JLINK_WriteReg(R0, 0x08000400)  returns 0x00 (0000ms, 0252ms total)
T08B4 000:537 JLINK_WriteReg(R1, 0x00000400)  returns 0x00 (0000ms, 0252ms total)
T08B4 000:537 JLINK_WriteReg(R2, 0x20000164)  returns 0x00 (0000ms, 0252ms total)
T08B4 000:537 JLINK_WriteReg(R3, 0x00000000)  returns 0x00 (0000ms, 0252ms total)
T08B4 000:537 JLINK_WriteReg(R4, 0x00000000)  returns 0x00 (0000ms, 0252ms total)
T08B4 000:537 JLINK_WriteReg(R5, 0x00000000)  returns 0x00 (0000ms, 0252ms total)
T08B4 000:537 JLINK_WriteReg(R6, 0x00000000)  returns 0x00 (0000ms, 0252ms total)
T08B4 000:537 JLINK_WriteReg(R7, 0x00000000)  returns 0x00 (0000ms, 0252ms total)
T08B4 000:537 JLINK_WriteReg(R8, 0x00000000)  returns 0x00 (0000ms, 0252ms total)
T08B4 000:537 JLINK_WriteReg(R9, 0x20000160)  returns 0x00 (0000ms, 0252ms total)
T08B4 000:537 JLINK_WriteReg(R10, 0x00000000)  returns 0x00 (0000ms, 0252ms total)
T08B4 000:537 JLINK_WriteReg(R11, 0x00000000)  returns 0x00 (0000ms, 0252ms total)
T08B4 000:537 JLINK_WriteReg(R12, 0x00000000)  returns 0x00 (0000ms, 0252ms total)
T08B4 000:537 JLINK_WriteReg(R13 (SP), 0x20001000)  returns 0x00 (0000ms, 0252ms total)
T08B4 000:537 JLINK_WriteReg(R14, 0x20000001)  returns 0x00 (0000ms, 0252ms total)
T08B4 000:537 JLINK_WriteReg(R15 (PC), 0x200000F4)  returns 0x00 (0000ms, 0252ms total)
T08B4 000:537 JLINK_WriteReg(XPSR, 0x01000000)  returns 0x00 (0000ms, 0252ms total)
T08B4 000:537 JLINK_WriteReg(MSP, 0x20001000)  returns 0x00 (0000ms, 0252ms total)
T08B4 000:537 JLINK_WriteReg(PSP, 0x20001000)  returns 0x00 (0000ms, 0252ms total)
T08B4 000:537 JLINK_WriteReg(CFBP, 0x00000000)  returns 0x00 (0000ms, 0252ms total)
T08B4 000:537 JLINK_SetBPEx(Addr = 0x20000000, Type = 0xFFFFFFF2)  returns 0x00000006 (0000ms, 0252ms total)
T08B4 000:537 JLINK_Go() -- CPU_ReadMem(4 bytes @ 0xE0001000) (0002ms, 0254ms total)
T08B4 000:539 JLINK_IsHalted()  returns FALSE (0001ms, 0255ms total)
T08B4 000:542 JLINK_IsHalted()  returns FALSE (0000ms, 0254ms total)
T08B4 000:544 JLINK_IsHalted()  returns FALSE (0000ms, 0254ms total)
T08B4 000:546 JLINK_IsHalted()  returns FALSE (0000ms, 0254ms total)
T08B4 000:548 JLINK_IsHalted()  returns FALSE (0000ms, 0254ms total)
T08B4 000:550 JLINK_IsHalted()  returns FALSE (0000ms, 0254ms total)
T08B4 000:552 JLINK_IsHalted()  returns FALSE (0000ms, 0254ms total)
T08B4 000:554 JLINK_IsHalted()  returns FALSE (0000ms, 0254ms total)
T08B4 000:556 JLINK_IsHalted()  returns FALSE (0000ms, 0254ms total)
T08B4 000:558 JLINK_IsHalted()  returns FALSE (0000ms, 0254ms total)
T08B4 000:560 JLINK_IsHalted()  returns FALSE (0000ms, 0254ms total)
T08B4 000:562 JLINK_IsHalted()  returns FALSE (0000ms, 0254ms total)
T08B4 000:564 JLINK_IsHalted()  returns FALSE (0000ms, 0254ms total)
T08B4 000:566 JLINK_IsHalted()  returns FALSE (0000ms, 0254ms total)
T08B4 000:568 JLINK_IsHalted()  returns FALSE (0000ms, 0254ms total)
T08B4 000:570 JLINK_IsHalted() -- CPU_ReadMem(2 bytes @ 0x20000000)  returns TRUE (0003ms, 0257ms total)
T08B4 000:573 JLINK_ReadReg(R15 (PC))  returns 0x20000000 (0000ms, 0254ms total)
T08B4 000:573 JLINK_ClrBPEx(BPHandle = 0x00000006)  returns 0x00 (0000ms, 0254ms total)
T08B4 000:573 JLINK_ReadReg(R0)  returns 0x00000000 (0000ms, 0254ms total)
T08B4 000:573 JLINK_WriteMem(0x20000164, 0x0400 Bytes, ...) - Data: 03 D5 C2 17 C1 E9 00 02 00 E0 08 60 01 20 70 47 ... -- CPU_WriteMem(1024 bytes @ 0x20000164)  returns 0x400 (0013ms, 0267ms total)
T08B4 000:586 JLINK_WriteReg(R0, 0x08000800)  returns 0x00 (0000ms, 0267ms total)
T08B4 000:586 JLINK_WriteReg(R1, 0x00000400)  returns 0x00 (0000ms, 0267ms total)
T08B4 000:586 JLINK_WriteReg(R2, 0x20000164)  returns 0x00 (0000ms, 0267ms total)
T08B4 000:586 JLINK_WriteReg(R3, 0x00000000)  returns 0x00 (0000ms, 0267ms total)
T08B4 000:586 JLINK_WriteReg(R4, 0x00000000)  returns 0x00 (0000ms, 0267ms total)
T08B4 000:586 JLINK_WriteReg(R5, 0x00000000)  returns 0x00 (0000ms, 0267ms total)
T08B4 000:586 JLINK_WriteReg(R6, 0x00000000)  returns 0x00 (0000ms, 0267ms total)
T08B4 000:586 JLINK_WriteReg(R7, 0x00000000)  returns 0x00 (0000ms, 0267ms total)
T08B4 000:586 JLINK_WriteReg(R8, 0x00000000)  returns 0x00 (0000ms, 0267ms total)
T08B4 000:586 JLINK_WriteReg(R9, 0x20000160)  returns 0x00 (0000ms, 0267ms total)
T08B4 000:586 JLINK_WriteReg(R10, 0x00000000)  returns 0x00 (0000ms, 0267ms total)
T08B4 000:586 JLINK_WriteReg(R11, 0x00000000)  returns 0x00 (0000ms, 0267ms total)
T08B4 000:586 JLINK_WriteReg(R12, 0x00000000)  returns 0x00 (0000ms, 0267ms total)
T08B4 000:586 JLINK_WriteReg(R13 (SP), 0x20001000)  returns 0x00 (0000ms, 0267ms total)
T08B4 000:586 JLINK_WriteReg(R14, 0x20000001)  returns 0x00 (0000ms, 0267ms total)
T08B4 000:586 JLINK_WriteReg(R15 (PC), 0x200000F4)  returns 0x00 (0000ms, 0267ms total)
T08B4 000:586 JLINK_WriteReg(XPSR, 0x01000000)  returns 0x00 (0000ms, 0267ms total)
T08B4 000:586 JLINK_WriteReg(MSP, 0x20001000)  returns 0x00 (0000ms, 0267ms total)
T08B4 000:586 JLINK_WriteReg(PSP, 0x20001000)  returns 0x00 (0000ms, 0267ms total)
T08B4 000:586 JLINK_WriteReg(CFBP, 0x00000000)  returns 0x00 (0000ms, 0267ms total)
T08B4 000:586 JLINK_SetBPEx(Addr = 0x20000000, Type = 0xFFFFFFF2)  returns 0x00000007 (0000ms, 0267ms total)
T08B4 000:586 JLINK_Go() -- CPU_ReadMem(4 bytes @ 0xE0001000) (0002ms, 0269ms total)
T08B4 000:588 JLINK_IsHalted()  returns FALSE (0000ms, 0269ms total)
T08B4 000:591 JLINK_IsHalted()  returns FALSE (0000ms, 0269ms total)
T08B4 000:593 JLINK_IsHalted()  returns FALSE (0000ms, 0269ms total)
T08B4 000:595 JLINK_IsHalted()  returns FALSE (0000ms, 0269ms total)
T08B4 000:601 JLINK_IsHalted()  returns FALSE (0000ms, 0269ms total)
T08B4 000:603 JLINK_IsHalted()  returns FALSE (0000ms, 0269ms total)
T08B4 000:605 JLINK_IsHalted()  returns FALSE (0000ms, 0269ms total)
T08B4 000:607 JLINK_IsHalted()  returns FALSE (0000ms, 0269ms total)
T08B4 000:609 JLINK_IsHalted()  returns FALSE (0000ms, 0269ms total)
T08B4 000:611 JLINK_IsHalted()  returns FALSE (0000ms, 0269ms total)
T08B4 000:613 JLINK_IsHalted()  returns FALSE (0000ms, 0269ms total)
T08B4 000:615 JLINK_IsHalted()  returns FALSE (0000ms, 0269ms total)
T08B4 000:617 JLINK_IsHalted()  returns FALSE (0000ms, 0269ms total)
T08B4 000:619 JLINK_IsHalted() -- CPU_ReadMem(2 bytes @ 0x20000000)  returns TRUE (0003ms, 0272ms total)
T08B4 000:622 JLINK_ReadReg(R15 (PC))  returns 0x20000000 (0000ms, 0269ms total)
T08B4 000:622 JLINK_ClrBPEx(BPHandle = 0x00000007)  returns 0x00 (0000ms, 0269ms total)
T08B4 000:622 JLINK_ReadReg(R0)  returns 0x00000000 (0000ms, 0269ms total)
T08B4 000:622 JLINK_WriteMem(0x20000164, 0x0400 Bytes, ...) - Data: 6D 1E F9 D5 B3 46 01 22 08 43 02 D0 00 22 7F 1C ... -- CPU_WriteMem(1024 bytes @ 0x20000164)  returns 0x400 (0014ms, 0283ms total)
T08B4 000:636 JLINK_WriteReg(R0, 0x08000C00)  returns 0x00 (0000ms, 0283ms total)
T08B4 000:636 JLINK_WriteReg(R1, 0x00000400)  returns 0x00 (0000ms, 0283ms total)
T08B4 000:636 JLINK_WriteReg(R2, 0x20000164)  returns 0x00 (0000ms, 0283ms total)
T08B4 000:636 JLINK_WriteReg(R3, 0x00000000)  returns 0x00 (0000ms, 0283ms total)
T08B4 000:636 JLINK_WriteReg(R4, 0x00000000)  returns 0x00 (0000ms, 0283ms total)
T08B4 000:636 JLINK_WriteReg(R5, 0x00000000)  returns 0x00 (0000ms, 0283ms total)
T08B4 000:636 JLINK_WriteReg(R6, 0x00000000)  returns 0x00 (0000ms, 0283ms total)
T08B4 000:636 JLINK_WriteReg(R7, 0x00000000)  returns 0x00 (0000ms, 0283ms total)
T08B4 000:636 JLINK_WriteReg(R8, 0x00000000)  returns 0x00 (0000ms, 0283ms total)
T08B4 000:636 JLINK_WriteReg(R9, 0x20000160)  returns 0x00 (0000ms, 0283ms total)
T08B4 000:636 JLINK_WriteReg(R10, 0x00000000)  returns 0x00 (0000ms, 0283ms total)
T08B4 000:636 JLINK_WriteReg(R11, 0x00000000)  returns 0x00 (0000ms, 0283ms total)
T08B4 000:636 JLINK_WriteReg(R12, 0x00000000)  returns 0x00 (0000ms, 0283ms total)
T08B4 000:636 JLINK_WriteReg(R13 (SP), 0x20001000)  returns 0x00 (0000ms, 0283ms total)
T08B4 000:636 JLINK_WriteReg(R14, 0x20000001)  returns 0x00 (0000ms, 0283ms total)
T08B4 000:636 JLINK_WriteReg(R15 (PC), 0x200000F4)  returns 0x00 (0000ms, 0283ms total)
T08B4 000:636 JLINK_WriteReg(XPSR, 0x01000000)  returns 0x00 (0000ms, 0283ms total)
T08B4 000:636 JLINK_WriteReg(MSP, 0x20001000)  returns 0x00 (0000ms, 0283ms total)
T08B4 000:636 JLINK_WriteReg(PSP, 0x20001000)  returns 0x00 (0000ms, 0283ms total)
T08B4 000:636 JLINK_WriteReg(CFBP, 0x00000000)  returns 0x00 (0000ms, 0283ms total)
T08B4 000:636 JLINK_SetBPEx(Addr = 0x20000000, Type = 0xFFFFFFF2)  returns 0x00000008 (0000ms, 0283ms total)
T08B4 000:636 JLINK_Go() -- CPU_ReadMem(4 bytes @ 0xE0001000) (0002ms, 0285ms total)
T08B4 000:638 JLINK_IsHalted()  returns FALSE (0000ms, 0285ms total)
T08B4 000:640 JLINK_IsHalted()  returns FALSE (0000ms, 0285ms total)
T08B4 000:642 JLINK_IsHalted()  returns FALSE (0000ms, 0285ms total)
T08B4 000:644 JLINK_IsHalted()  returns FALSE (0000ms, 0285ms total)
T08B4 000:647 JLINK_IsHalted()  returns FALSE (0000ms, 0285ms total)
T08B4 000:649 JLINK_IsHalted()  returns FALSE (0000ms, 0285ms total)
T08B4 000:651 JLINK_IsHalted()  returns FALSE (0000ms, 0285ms total)
T08B4 000:653 JLINK_IsHalted()  returns FALSE (0000ms, 0285ms total)
T08B4 000:655 JLINK_IsHalted()  returns FALSE (0000ms, 0285ms total)
T08B4 000:657 JLINK_IsHalted()  returns FALSE (0000ms, 0285ms total)
T08B4 000:659 JLINK_IsHalted()  returns FALSE (0000ms, 0285ms total)
T08B4 000:661 JLINK_IsHalted()  returns FALSE (0000ms, 0285ms total)
T08B4 000:663 JLINK_IsHalted()  returns FALSE (0000ms, 0285ms total)
T08B4 000:665 JLINK_IsHalted()  returns FALSE (0000ms, 0285ms total)
T08B4 000:667 JLINK_IsHalted()  returns FALSE (0000ms, 0285ms total)
T08B4 000:669 JLINK_IsHalted() -- CPU_ReadMem(2 bytes @ 0x20000000)  returns TRUE (0003ms, 0288ms total)
T08B4 000:672 JLINK_ReadReg(R15 (PC))  returns 0x20000000 (0000ms, 0285ms total)
T08B4 000:672 JLINK_ClrBPEx(BPHandle = 0x00000008)  returns 0x00 (0000ms, 0285ms total)
T08B4 000:672 JLINK_ReadReg(R0)  returns 0x00000000 (0000ms, 0285ms total)
T08B4 000:672 JLINK_WriteMem(0x20000164, 0x0400 Bytes, ...) - Data: D4 E9 01 21 38 46 90 47 20 6A 40 1C 20 62 C0 1C ... -- CPU_WriteMem(1024 bytes @ 0x20000164)  returns 0x400 (0013ms, 0298ms total)
T08B4 000:685 JLINK_WriteReg(R0, 0x08001000)  returns 0x00 (0000ms, 0298ms total)
T08B4 000:685 JLINK_WriteReg(R1, 0x00000400)  returns 0x00 (0000ms, 0298ms total)
T08B4 000:685 JLINK_WriteReg(R2, 0x20000164)  returns 0x00 (0000ms, 0298ms total)
T08B4 000:685 JLINK_WriteReg(R3, 0x00000000)  returns 0x00 (0000ms, 0298ms total)
T08B4 000:685 JLINK_WriteReg(R4, 0x00000000)  returns 0x00 (0000ms, 0298ms total)
T08B4 000:685 JLINK_WriteReg(R5, 0x00000000)  returns 0x00 (0000ms, 0298ms total)
T08B4 000:685 JLINK_WriteReg(R6, 0x00000000)  returns 0x00 (0000ms, 0298ms total)
T08B4 000:685 JLINK_WriteReg(R7, 0x00000000)  returns 0x00 (0000ms, 0298ms total)
T08B4 000:685 JLINK_WriteReg(R8, 0x00000000)  returns 0x00 (0000ms, 0298ms total)
T08B4 000:685 JLINK_WriteReg(R9, 0x20000160)  returns 0x00 (0000ms, 0298ms total)
T08B4 000:685 JLINK_WriteReg(R10, 0x00000000)  returns 0x00 (0000ms, 0298ms total)
T08B4 000:685 JLINK_WriteReg(R11, 0x00000000)  returns 0x00 (0000ms, 0298ms total)
T08B4 000:685 JLINK_WriteReg(R12, 0x00000000)  returns 0x00 (0000ms, 0298ms total)
T08B4 000:685 JLINK_WriteReg(R13 (SP), 0x20001000)  returns 0x00 (0000ms, 0298ms total)
T08B4 000:685 JLINK_WriteReg(R14, 0x20000001)  returns 0x00 (0000ms, 0298ms total)
T08B4 000:685 JLINK_WriteReg(R15 (PC), 0x200000F4)  returns 0x00 (0000ms, 0298ms total)
T08B4 000:685 JLINK_WriteReg(XPSR, 0x01000000)  returns 0x00 (0000ms, 0298ms total)
T08B4 000:685 JLINK_WriteReg(MSP, 0x20001000)  returns 0x00 (0000ms, 0298ms total)
T08B4 000:685 JLINK_WriteReg(PSP, 0x20001000)  returns 0x00 (0000ms, 0298ms total)
T08B4 000:685 JLINK_WriteReg(CFBP, 0x00000000)  returns 0x00 (0000ms, 0298ms total)
T08B4 000:685 JLINK_SetBPEx(Addr = 0x20000000, Type = 0xFFFFFFF2)  returns 0x00000009 (0000ms, 0298ms total)
T08B4 000:685 JLINK_Go() -- CPU_ReadMem(4 bytes @ 0xE0001000) (0002ms, 0300ms total)
T08B4 000:687 JLINK_IsHalted()  returns FALSE (0001ms, 0301ms total)
T08B4 000:690 JLINK_IsHalted()  returns FALSE (0000ms, 0300ms total)
T08B4 000:692 JLINK_IsHalted()  returns FALSE (0000ms, 0300ms total)
T08B4 000:694 JLINK_IsHalted()  returns FALSE (0000ms, 0300ms total)
T08B4 000:696 JLINK_IsHalted()  returns FALSE (0000ms, 0300ms total)
T08B4 000:698 JLINK_IsHalted()  returns FALSE (0000ms, 0300ms total)
T08B4 000:700 JLINK_IsHalted()  returns FALSE (0000ms, 0300ms total)
T08B4 000:702 JLINK_IsHalted()  returns FALSE (0000ms, 0300ms total)
T08B4 000:704 JLINK_IsHalted()  returns FALSE (0000ms, 0300ms total)
T08B4 000:706 JLINK_IsHalted()  returns FALSE (0000ms, 0300ms total)
T08B4 000:708 JLINK_IsHalted()  returns FALSE (0000ms, 0300ms total)
T08B4 000:710 JLINK_IsHalted()  returns FALSE (0000ms, 0300ms total)
T08B4 000:712 JLINK_IsHalted()  returns FALSE (0000ms, 0300ms total)
T08B4 000:714 JLINK_IsHalted()  returns FALSE (0000ms, 0300ms total)
T08B4 000:716 JLINK_IsHalted()  returns FALSE (0000ms, 0300ms total)
T08B4 000:718 JLINK_IsHalted() -- CPU_ReadMem(2 bytes @ 0x20000000)  returns TRUE (0003ms, 0303ms total)
T08B4 000:721 JLINK_ReadReg(R15 (PC))  returns 0x20000000 (0000ms, 0300ms total)
T08B4 000:721 JLINK_ClrBPEx(BPHandle = 0x00000009)  returns 0x00 (0000ms, 0300ms total)
T08B4 000:721 JLINK_ReadReg(R0)  returns 0x00000000 (0000ms, 0300ms total)
T08B4 000:721 JLINK_WriteMem(0x20000164, 0x0400 Bytes, ...) - Data: 06 FB 07 FC 4F EA 1C 4C 0C FB 0B F7 B0 EB C7 40 ... -- CPU_WriteMem(1024 bytes @ 0x20000164)  returns 0x400 (0013ms, 0313ms total)
T08B4 000:734 JLINK_WriteReg(R0, 0x08001400)  returns 0x00 (0000ms, 0313ms total)
T08B4 000:734 JLINK_WriteReg(R1, 0x00000400)  returns 0x00 (0000ms, 0313ms total)
T08B4 000:734 JLINK_WriteReg(R2, 0x20000164)  returns 0x00 (0000ms, 0313ms total)
T08B4 000:734 JLINK_WriteReg(R3, 0x00000000)  returns 0x00 (0000ms, 0313ms total)
T08B4 000:734 JLINK_WriteReg(R4, 0x00000000)  returns 0x00 (0000ms, 0313ms total)
T08B4 000:734 JLINK_WriteReg(R5, 0x00000000)  returns 0x00 (0000ms, 0313ms total)
T08B4 000:734 JLINK_WriteReg(R6, 0x00000000)  returns 0x00 (0000ms, 0313ms total)
T08B4 000:734 JLINK_WriteReg(R7, 0x00000000)  returns 0x00 (0000ms, 0313ms total)
T08B4 000:734 JLINK_WriteReg(R8, 0x00000000)  returns 0x00 (0000ms, 0313ms total)
T08B4 000:734 JLINK_WriteReg(R9, 0x20000160)  returns 0x00 (0000ms, 0313ms total)
T08B4 000:734 JLINK_WriteReg(R10, 0x00000000)  returns 0x00 (0000ms, 0313ms total)
T08B4 000:734 JLINK_WriteReg(R11, 0x00000000)  returns 0x00 (0000ms, 0313ms total)
T08B4 000:734 JLINK_WriteReg(R12, 0x00000000)  returns 0x00 (0000ms, 0313ms total)
T08B4 000:734 JLINK_WriteReg(R13 (SP), 0x20001000)  returns 0x00 (0000ms, 0313ms total)
T08B4 000:734 JLINK_WriteReg(R14, 0x20000001)  returns 0x00 (0000ms, 0313ms total)
T08B4 000:734 JLINK_WriteReg(R15 (PC), 0x200000F4)  returns 0x00 (0000ms, 0313ms total)
T08B4 000:734 JLINK_WriteReg(XPSR, 0x01000000)  returns 0x00 (0000ms, 0313ms total)
T08B4 000:734 JLINK_WriteReg(MSP, 0x20001000)  returns 0x00 (0000ms, 0313ms total)
T08B4 000:734 JLINK_WriteReg(PSP, 0x20001000)  returns 0x00 (0000ms, 0313ms total)
T08B4 000:734 JLINK_WriteReg(CFBP, 0x00000000)  returns 0x00 (0000ms, 0313ms total)
T08B4 000:734 JLINK_SetBPEx(Addr = 0x20000000, Type = 0xFFFFFFF2)  returns 0x0000000A (0000ms, 0313ms total)
T08B4 000:734 JLINK_Go() -- CPU_ReadMem(4 bytes @ 0xE0001000) (0002ms, 0315ms total)
T08B4 000:736 JLINK_IsHalted()  returns FALSE (0001ms, 0316ms total)
T08B4 000:739 JLINK_IsHalted()  returns FALSE (0000ms, 0315ms total)
T08B4 000:741 JLINK_IsHalted()  returns FALSE (0000ms, 0315ms total)
T08B4 000:743 JLINK_IsHalted()  returns FALSE (0000ms, 0315ms total)
T08B4 000:745 JLINK_IsHalted()  returns FALSE (0000ms, 0315ms total)
T08B4 000:747 JLINK_IsHalted()  returns FALSE (0000ms, 0315ms total)
T08B4 000:749 JLINK_IsHalted()  returns FALSE (0000ms, 0315ms total)
T08B4 000:751 JLINK_IsHalted()  returns FALSE (0000ms, 0315ms total)
T08B4 000:754 JLINK_IsHalted()  returns FALSE (0000ms, 0315ms total)
T08B4 000:756 JLINK_IsHalted()  returns FALSE (0000ms, 0315ms total)
T08B4 000:758 JLINK_IsHalted()  returns FALSE (0000ms, 0315ms total)
T08B4 000:760 JLINK_IsHalted()  returns FALSE (0000ms, 0315ms total)
T08B4 000:762 JLINK_IsHalted()  returns FALSE (0000ms, 0315ms total)
T08B4 000:764 JLINK_IsHalted()  returns FALSE (0000ms, 0315ms total)
T08B4 000:766 JLINK_IsHalted()  returns FALSE (0000ms, 0315ms total)
T08B4 000:768 JLINK_IsHalted() -- CPU_ReadMem(2 bytes @ 0x20000000)  returns TRUE (0003ms, 0318ms total)
T08B4 000:771 JLINK_ReadReg(R15 (PC))  returns 0x20000000 (0000ms, 0315ms total)
T08B4 000:771 JLINK_ClrBPEx(BPHandle = 0x0000000A)  returns 0x00 (0000ms, 0315ms total)
T08B4 000:771 JLINK_ReadReg(R0)  returns 0x00000000 (0000ms, 0315ms total)
T08B4 000:772 JLINK_WriteMem(0x20000164, 0x0400 Bytes, ...) - Data: BD E8 01 89 4F EA 14 45 4F EA 11 47 24 EA 05 46 ... -- CPU_WriteMem(1024 bytes @ 0x20000164)  returns 0x400 (0012ms, 0327ms total)
T08B4 000:784 JLINK_WriteReg(R0, 0x08001800)  returns 0x00 (0000ms, 0327ms total)
T08B4 000:784 JLINK_WriteReg(R1, 0x00000400)  returns 0x00 (0000ms, 0327ms total)
T08B4 000:784 JLINK_WriteReg(R2, 0x20000164)  returns 0x00 (0000ms, 0327ms total)
T08B4 000:784 JLINK_WriteReg(R3, 0x00000000)  returns 0x00 (0000ms, 0327ms total)
T08B4 000:784 JLINK_WriteReg(R4, 0x00000000)  returns 0x00 (0000ms, 0327ms total)
T08B4 000:784 JLINK_WriteReg(R5, 0x00000000)  returns 0x00 (0000ms, 0327ms total)
T08B4 000:784 JLINK_WriteReg(R6, 0x00000000)  returns 0x00 (0000ms, 0327ms total)
T08B4 000:784 JLINK_WriteReg(R7, 0x00000000)  returns 0x00 (0000ms, 0327ms total)
T08B4 000:784 JLINK_WriteReg(R8, 0x00000000)  returns 0x00 (0000ms, 0327ms total)
T08B4 000:784 JLINK_WriteReg(R9, 0x20000160)  returns 0x00 (0000ms, 0327ms total)
T08B4 000:784 JLINK_WriteReg(R10, 0x00000000)  returns 0x00 (0000ms, 0327ms total)
T08B4 000:784 JLINK_WriteReg(R11, 0x00000000)  returns 0x00 (0000ms, 0327ms total)
T08B4 000:784 JLINK_WriteReg(R12, 0x00000000)  returns 0x00 (0000ms, 0327ms total)
T08B4 000:784 JLINK_WriteReg(R13 (SP), 0x20001000)  returns 0x00 (0000ms, 0327ms total)
T08B4 000:784 JLINK_WriteReg(R14, 0x20000001)  returns 0x00 (0000ms, 0327ms total)
T08B4 000:784 JLINK_WriteReg(R15 (PC), 0x200000F4)  returns 0x00 (0000ms, 0327ms total)
T08B4 000:784 JLINK_WriteReg(XPSR, 0x01000000)  returns 0x00 (0000ms, 0327ms total)
T08B4 000:784 JLINK_WriteReg(MSP, 0x20001000)  returns 0x00 (0000ms, 0327ms total)
T08B4 000:784 JLINK_WriteReg(PSP, 0x20001000)  returns 0x00 (0000ms, 0327ms total)
T08B4 000:784 JLINK_WriteReg(CFBP, 0x00000000)  returns 0x00 (0000ms, 0327ms total)
T08B4 000:784 JLINK_SetBPEx(Addr = 0x20000000, Type = 0xFFFFFFF2)  returns 0x0000000B (0000ms, 0327ms total)
T08B4 000:784 JLINK_Go() -- CPU_ReadMem(4 bytes @ 0xE0001000) (0002ms, 0329ms total)
T08B4 000:786 JLINK_IsHalted()  returns FALSE (0001ms, 0330ms total)
T08B4 000:789 JLINK_IsHalted()  returns FALSE (0000ms, 0329ms total)
T08B4 000:791 JLINK_IsHalted()  returns FALSE (0000ms, 0329ms total)
T08B4 000:793 JLINK_IsHalted()  returns FALSE (0000ms, 0329ms total)
T08B4 000:795 JLINK_IsHalted()  returns FALSE (0000ms, 0329ms total)
T08B4 000:797 JLINK_IsHalted()  returns FALSE (0000ms, 0329ms total)
T08B4 000:799 JLINK_IsHalted()  returns FALSE (0000ms, 0329ms total)
T08B4 000:801 JLINK_IsHalted()  returns FALSE (0000ms, 0329ms total)
T08B4 000:803 JLINK_IsHalted()  returns FALSE (0000ms, 0329ms total)
T08B4 000:805 JLINK_IsHalted()  returns FALSE (0000ms, 0329ms total)
T08B4 000:807 JLINK_IsHalted()  returns FALSE (0000ms, 0329ms total)
T08B4 000:809 JLINK_IsHalted()  returns FALSE (0000ms, 0329ms total)
T08B4 000:811 JLINK_IsHalted()  returns FALSE (0000ms, 0329ms total)
T08B4 000:813 JLINK_IsHalted()  returns FALSE (0000ms, 0329ms total)
T08B4 000:815 JLINK_IsHalted()  returns FALSE (0000ms, 0329ms total)
T08B4 000:817 JLINK_IsHalted()  returns FALSE (0000ms, 0329ms total)
T08B4 000:819 JLINK_IsHalted() -- CPU_ReadMem(2 bytes @ 0x20000000)  returns TRUE (0003ms, 0332ms total)
T08B4 000:822 JLINK_ReadReg(R15 (PC))  returns 0x20000000 (0000ms, 0329ms total)
T08B4 000:822 JLINK_ClrBPEx(BPHandle = 0x0000000B)  returns 0x00 (0000ms, 0329ms total)
T08B4 000:822 JLINK_ReadReg(R0)  returns 0x00000000 (0000ms, 0329ms total)
T08B4 000:822 JLINK_WriteMem(0x20000164, 0x0400 Bytes, ...) - Data: 1C 00 00 EB 80 00 80 00 4E 30 81 B2 EF 22 3C 20 ... -- CPU_WriteMem(1024 bytes @ 0x20000164)  returns 0x400 (0013ms, 0342ms total)
T08B4 000:835 JLINK_WriteReg(R0, 0x08001C00)  returns 0x00 (0000ms, 0342ms total)
T08B4 000:835 JLINK_WriteReg(R1, 0x00000400)  returns 0x00 (0000ms, 0342ms total)
T08B4 000:835 JLINK_WriteReg(R2, 0x20000164)  returns 0x00 (0000ms, 0342ms total)
T08B4 000:835 JLINK_WriteReg(R3, 0x00000000)  returns 0x00 (0000ms, 0342ms total)
T08B4 000:835 JLINK_WriteReg(R4, 0x00000000)  returns 0x00 (0000ms, 0342ms total)
T08B4 000:835 JLINK_WriteReg(R5, 0x00000000)  returns 0x00 (0000ms, 0342ms total)
T08B4 000:835 JLINK_WriteReg(R6, 0x00000000)  returns 0x00 (0000ms, 0342ms total)
T08B4 000:835 JLINK_WriteReg(R7, 0x00000000)  returns 0x00 (0000ms, 0342ms total)
T08B4 000:835 JLINK_WriteReg(R8, 0x00000000)  returns 0x00 (0000ms, 0342ms total)
T08B4 000:835 JLINK_WriteReg(R9, 0x20000160)  returns 0x00 (0000ms, 0342ms total)
T08B4 000:835 JLINK_WriteReg(R10, 0x00000000)  returns 0x00 (0000ms, 0342ms total)
T08B4 000:835 JLINK_WriteReg(R11, 0x00000000)  returns 0x00 (0000ms, 0342ms total)
T08B4 000:835 JLINK_WriteReg(R12, 0x00000000)  returns 0x00 (0000ms, 0342ms total)
T08B4 000:835 JLINK_WriteReg(R13 (SP), 0x20001000)  returns 0x00 (0000ms, 0342ms total)
T08B4 000:835 JLINK_WriteReg(R14, 0x20000001)  returns 0x00 (0000ms, 0342ms total)
T08B4 000:835 JLINK_WriteReg(R15 (PC), 0x200000F4)  returns 0x00 (0000ms, 0342ms total)
T08B4 000:835 JLINK_WriteReg(XPSR, 0x01000000)  returns 0x00 (0000ms, 0342ms total)
T08B4 000:835 JLINK_WriteReg(MSP, 0x20001000)  returns 0x00 (0000ms, 0342ms total)
T08B4 000:835 JLINK_WriteReg(PSP, 0x20001000)  returns 0x00 (0000ms, 0342ms total)
T08B4 000:835 JLINK_WriteReg(CFBP, 0x00000000)  returns 0x00 (0000ms, 0342ms total)
T08B4 000:835 JLINK_SetBPEx(Addr = 0x20000000, Type = 0xFFFFFFF2)  returns 0x0000000C (0000ms, 0342ms total)
T08B4 000:835 JLINK_Go() -- CPU_ReadMem(4 bytes @ 0xE0001000) (0002ms, 0344ms total)
T08B4 000:837 JLINK_IsHalted()  returns FALSE (0001ms, 0345ms total)
T08B4 000:840 JLINK_IsHalted()  returns FALSE (0000ms, 0344ms total)
T08B4 000:842 JLINK_IsHalted()  returns FALSE (0000ms, 0344ms total)
T08B4 000:844 JLINK_IsHalted()  returns FALSE (0000ms, 0344ms total)
T08B4 000:846 JLINK_IsHalted()  returns FALSE (0000ms, 0344ms total)
T08B4 000:848 JLINK_IsHalted()  returns FALSE (0000ms, 0344ms total)
T08B4 000:850 JLINK_IsHalted()  returns FALSE (0000ms, 0344ms total)
T08B4 000:852 JLINK_IsHalted()  returns FALSE (0000ms, 0344ms total)
T08B4 000:854 JLINK_IsHalted()  returns FALSE (0000ms, 0344ms total)
T08B4 000:856 JLINK_IsHalted()  returns FALSE (0000ms, 0344ms total)
T08B4 000:858 JLINK_IsHalted()  returns FALSE (0000ms, 0344ms total)
T08B4 000:860 JLINK_IsHalted()  returns FALSE (0000ms, 0344ms total)
T08B4 000:862 JLINK_IsHalted()  returns FALSE (0000ms, 0344ms total)
T08B4 000:864 JLINK_IsHalted()  returns FALSE (0000ms, 0344ms total)
T08B4 000:867 JLINK_IsHalted()  returns FALSE (0000ms, 0344ms total)
T08B4 000:869 JLINK_IsHalted() -- CPU_ReadMem(2 bytes @ 0x20000000)  returns TRUE (0003ms, 0347ms total)
T08B4 000:872 JLINK_ReadReg(R15 (PC))  returns 0x20000000 (0000ms, 0344ms total)
T08B4 000:872 JLINK_ClrBPEx(BPHandle = 0x0000000C)  returns 0x00 (0000ms, 0344ms total)
T08B4 000:872 JLINK_ReadReg(R0)  returns 0x00000000 (0000ms, 0344ms total)
T08B4 000:872 JLINK_WriteMem(0x20000164, 0x0400 Bytes, ...) - Data: 07 20 FF F7 B7 FF 20 F0 03 00 18 B1 3F 20 FF F7 ... -- CPU_WriteMem(1024 bytes @ 0x20000164)  returns 0x400 (0013ms, 0357ms total)
T08B4 000:885 JLINK_WriteReg(R0, 0x08002000)  returns 0x00 (0000ms, 0357ms total)
T08B4 000:885 JLINK_WriteReg(R1, 0x00000400)  returns 0x00 (0000ms, 0357ms total)
T08B4 000:885 JLINK_WriteReg(R2, 0x20000164)  returns 0x00 (0000ms, 0357ms total)
T08B4 000:885 JLINK_WriteReg(R3, 0x00000000)  returns 0x00 (0000ms, 0357ms total)
T08B4 000:885 JLINK_WriteReg(R4, 0x00000000)  returns 0x00 (0000ms, 0357ms total)
T08B4 000:885 JLINK_WriteReg(R5, 0x00000000)  returns 0x00 (0000ms, 0357ms total)
T08B4 000:885 JLINK_WriteReg(R6, 0x00000000)  returns 0x00 (0000ms, 0357ms total)
T08B4 000:885 JLINK_WriteReg(R7, 0x00000000)  returns 0x00 (0000ms, 0357ms total)
T08B4 000:885 JLINK_WriteReg(R8, 0x00000000)  returns 0x00 (0000ms, 0357ms total)
T08B4 000:885 JLINK_WriteReg(R9, 0x20000160)  returns 0x00 (0000ms, 0357ms total)
T08B4 000:885 JLINK_WriteReg(R10, 0x00000000)  returns 0x00 (0000ms, 0357ms total)
T08B4 000:885 JLINK_WriteReg(R11, 0x00000000)  returns 0x00 (0000ms, 0357ms total)
T08B4 000:885 JLINK_WriteReg(R12, 0x00000000)  returns 0x00 (0000ms, 0357ms total)
T08B4 000:885 JLINK_WriteReg(R13 (SP), 0x20001000)  returns 0x00 (0000ms, 0357ms total)
T08B4 000:885 JLINK_WriteReg(R14, 0x20000001)  returns 0x00 (0000ms, 0357ms total)
T08B4 000:885 JLINK_WriteReg(R15 (PC), 0x200000F4)  returns 0x00 (0000ms, 0357ms total)
T08B4 000:885 JLINK_WriteReg(XPSR, 0x01000000)  returns 0x00 (0000ms, 0357ms total)
T08B4 000:885 JLINK_WriteReg(MSP, 0x20001000)  returns 0x00 (0000ms, 0357ms total)
T08B4 000:885 JLINK_WriteReg(PSP, 0x20001000)  returns 0x00 (0000ms, 0357ms total)
T08B4 000:885 JLINK_WriteReg(CFBP, 0x00000000)  returns 0x00 (0000ms, 0357ms total)
T08B4 000:885 JLINK_SetBPEx(Addr = 0x20000000, Type = 0xFFFFFFF2)  returns 0x0000000D (0000ms, 0357ms total)
T08B4 000:885 JLINK_Go() -- CPU_ReadMem(4 bytes @ 0xE0001000) (0002ms, 0359ms total)
T08B4 000:887 JLINK_IsHalted()  returns FALSE (0000ms, 0359ms total)
T08B4 000:890 JLINK_IsHalted()  returns FALSE (0000ms, 0359ms total)
T08B4 000:892 JLINK_IsHalted()  returns FALSE (0000ms, 0359ms total)
T08B4 000:894 JLINK_IsHalted()  returns FALSE (0000ms, 0359ms total)
T08B4 000:896 JLINK_IsHalted()  returns FALSE (0000ms, 0359ms total)
T08B4 000:898 JLINK_IsHalted()  returns FALSE (0000ms, 0359ms total)
T08B4 000:900 JLINK_IsHalted()  returns FALSE (0000ms, 0359ms total)
T08B4 000:902 JLINK_IsHalted()  returns FALSE (0000ms, 0359ms total)
T08B4 000:904 JLINK_IsHalted()  returns FALSE (0000ms, 0359ms total)
T08B4 000:906 JLINK_IsHalted()  returns FALSE (0000ms, 0359ms total)
T08B4 000:908 JLINK_IsHalted()  returns FALSE (0000ms, 0359ms total)
T08B4 000:910 JLINK_IsHalted()  returns FALSE (0000ms, 0359ms total)
T08B4 000:912 JLINK_IsHalted()  returns FALSE (0000ms, 0359ms total)
T08B4 000:914 JLINK_IsHalted()  returns FALSE (0000ms, 0359ms total)
T08B4 000:916 JLINK_IsHalted()  returns FALSE (0000ms, 0359ms total)
T08B4 000:918 JLINK_IsHalted() -- CPU_ReadMem(2 bytes @ 0x20000000)  returns TRUE (0003ms, 0362ms total)
T08B4 000:921 JLINK_ReadReg(R15 (PC))  returns 0x20000000 (0000ms, 0359ms total)
T08B4 000:921 JLINK_ClrBPEx(BPHandle = 0x0000000D)  returns 0x00 (0000ms, 0359ms total)
T08B4 000:921 JLINK_ReadReg(R0)  returns 0x00000000 (0000ms, 0359ms total)
T08B4 000:922 JLINK_WriteMem(0x20000164, 0x0400 Bytes, ...) - Data: 4B 49 88 42 08 D1 4A 49 08 39 49 68 41 F0 0F 01 ... -- CPU_WriteMem(1024 bytes @ 0x20000164)  returns 0x400 (0012ms, 0371ms total)
T08B4 000:934 JLINK_WriteReg(R0, 0x08002400)  returns 0x00 (0000ms, 0371ms total)
T08B4 000:934 JLINK_WriteReg(R1, 0x00000400)  returns 0x00 (0000ms, 0371ms total)
T08B4 000:934 JLINK_WriteReg(R2, 0x20000164)  returns 0x00 (0000ms, 0371ms total)
T08B4 000:934 JLINK_WriteReg(R3, 0x00000000)  returns 0x00 (0000ms, 0371ms total)
T08B4 000:934 JLINK_WriteReg(R4, 0x00000000)  returns 0x00 (0000ms, 0371ms total)
T08B4 000:934 JLINK_WriteReg(R5, 0x00000000)  returns 0x00 (0000ms, 0371ms total)
T08B4 000:934 JLINK_WriteReg(R6, 0x00000000)  returns 0x00 (0000ms, 0371ms total)
T08B4 000:934 JLINK_WriteReg(R7, 0x00000000)  returns 0x00 (0000ms, 0371ms total)
T08B4 000:934 JLINK_WriteReg(R8, 0x00000000)  returns 0x00 (0000ms, 0371ms total)
T08B4 000:934 JLINK_WriteReg(R9, 0x20000160)  returns 0x00 (0000ms, 0371ms total)
T08B4 000:934 JLINK_WriteReg(R10, 0x00000000)  returns 0x00 (0000ms, 0371ms total)
T08B4 000:934 JLINK_WriteReg(R11, 0x00000000)  returns 0x00 (0000ms, 0371ms total)
T08B4 000:934 JLINK_WriteReg(R12, 0x00000000)  returns 0x00 (0000ms, 0371ms total)
T08B4 000:934 JLINK_WriteReg(R13 (SP), 0x20001000)  returns 0x00 (0000ms, 0371ms total)
